


                               __________________________________________
                              |                                          |
                              |  NUMERICAL ELECTROMAGNETICS CODE (nec2c) |
                              |   Translated to 'C' in Double Precision  |
                              |__________________________________________|



                               ---------------- COMMENTS ----------------
                               ground mounted vertical 2016-07-21 17:01
                               ----------



                               -------- STRUCTURE SPECIFICATION --------
                                     COORDINATES MUST BE INPUT IN
                                     METERS OR BE SCALED TO METERS
                                     BEFORE STRUCTURE INPUT IS ENDED

  WIRE                                                                                 SEG FIRST  LAST  TAG
   No:        X1         Y1         Z1         X2         Y2         Z2       RADIUS   No:   SEG   SEG  No:
     1      0.0000     0.0000     0.0000     0.0000     0.0000     0.0500     0.0025     3     1     3    1
     2      0.0000     0.0000     0.0500     0.0000     0.0000     5.0000     0.0025    21     4    24    2

     GROUND PLANE SPECIFIED.
     WHERE WIRE ENDS TOUCH GROUND, CURRENT WILL BE INTERPOLATED TO IMAGE IN GROUND PLANE.


     TOTAL SEGMENTS USED: 24   SEGMENTS IN A SYMMETRIC CELL: 24   SYMMETRY FLAG: 0


                               ---------- SEGMENTATION DATA ----------
                                        COORDINATES IN METERS
                            I+ AND I- INDICATE THE SEGMENTS BEFORE AND AFTER I

   SEG    COORDINATES OF SEGM CENTER     SEGM    ORIENTATION ANGLES    WIRE    CONNECTION DATA   TAG
   No:       X         Y         Z      LENGTH     ALPHA      BETA    RADIUS    I-     I    I+   No:
     1    0.0000    0.0000    0.0083    0.0167   90.0000    0.0000    0.0025     1     1     2     1
     2    0.0000    0.0000    0.0250    0.0167   90.0000    0.0000    0.0025     1     2     3     1
     3    0.0000    0.0000    0.0417    0.0167   90.0000    0.0000    0.0025     2     3     4     1
     4    0.0000    0.0000    0.1679    0.2357   90.0000    0.0000    0.0025     3     4     5     2
     5    0.0000    0.0000    0.4036    0.2357   90.0000    0.0000    0.0025     4     5     6     2
     6    0.0000    0.0000    0.6393    0.2357   90.0000    0.0000    0.0025     5     6     7     2
     7    0.0000    0.0000    0.8750    0.2357   90.0000    0.0000    0.0025     6     7     8     2
     8    0.0000    0.0000    1.1107    0.2357   90.0000    0.0000    0.0025     7     8     9     2
     9    0.0000    0.0000    1.3464    0.2357   90.0000    0.0000    0.0025     8     9    10     2
    10    0.0000    0.0000    1.5821    0.2357   90.0000    0.0000    0.0025     9    10    11     2
    11    0.0000    0.0000    1.8179    0.2357   90.0000    0.0000    0.0025    10    11    12     2
    12    0.0000    0.0000    2.0536    0.2357   90.0000    0.0000    0.0025    11    12    13     2
    13    0.0000    0.0000    2.2893    0.2357   90.0000    0.0000    0.0025    12    13    14     2
    14    0.0000    0.0000    2.5250    0.2357   90.0000    0.0000    0.0025    13    14    15     2
    15    0.0000    0.0000    2.7607    0.2357   90.0000    0.0000    0.0025    14    15    16     2
    16    0.0000    0.0000    2.9964    0.2357   90.0000    0.0000    0.0025    15    16    17     2
    17    0.0000    0.0000    3.2321    0.2357   90.0000    0.0000    0.0025    16    17    18     2
    18    0.0000    0.0000    3.4679    0.2357   90.0000    0.0000    0.0025    17    18    19     2
    19    0.0000    0.0000    3.7036    0.2357   90.0000    0.0000    0.0025    18    19    20     2
    20    0.0000    0.0000    3.9393    0.2357   90.0000    0.0000    0.0025    19    20    21     2
    21    0.0000    0.0000    4.1750    0.2357   90.0000    0.0000    0.0025    20    21    22     2
    22    0.0000    0.0000    4.4107    0.2357   90.0000    0.0000    0.0025    21    22    23     2
    23    0.0000    0.0000    4.6464    0.2357   90.0000    0.0000    0.0025    22    23    24     2
    24    0.0000    0.0000    4.8821    0.2357   90.0000    0.0000    0.0025    23    24     0     2



  DATA CARD No:   1 FR   0     1     0     0  1.43200E+01  0.00000E+00  0.00000E+00  0.00000E+00  0.00000E+00  0.00000E+00
  DATA CARD No:   2 GN   0    10     0     0  1.50000E+01  1.00000E-02  5.00000E+00  1.62000E-03  0.00000E+00  0.00000E+00
  DATA CARD No:   3 EX   0     1     2     1  1.00000E+00  0.00000E+00  0.00000E+00  0.00000E+00  0.00000E+00  0.00000E+00
  DATA CARD No:   4 XQ   0     0     0     0  0.00000E+00  0.00000E+00  0.00000E+00  0.00000E+00  0.00000E+00  0.00000E+00


                               --------- FREQUENCY --------
                                FREQUENCY : 1.4320E+01 MHz
                                WAVELENGTH: 2.0936E+01 Mtr

                        APPROXIMATE INTEGRATION EMPLOYED FOR SEGMENTS 
                        THAT ARE MORE THAN 1.000 WAVELENGTHS APART


                          ------ STRUCTURE IMPEDANCE LOADING ------
                                 THIS STRUCTURE IS NOT LOADED


                            -------- ANTENNA ENVIRONMENT --------
                            RADIAL WIRE GROUND SCREEN
                            10 WIRES
                            WIRE LENGTH:     5.00 METERS
                            WIRE RADIUS:  1.620E-03 METERS
                            MEDIUM UNDER SCREEN -
                            FINITE GROUND - REFLECTION COEFFICIENT APPROXIMATION
                            RELATIVE DIELECTRIC CONST: 15.000
                            CONDUCTIVITY:  1.000E-02 MHOS/METER
                            COMPLEX DIELECTRIC CONSTANT:  1.5000E+01-1.2553E+01j


                             ---------- MATRIX TIMING ----------
                               FILL: 0 msec  FACTOR: 0 msec


                        --------- ANTENNA INPUT PARAMETERS ---------
  TAG   SEG       VOLTAGE (VOLTS)         CURRENT (AMPS)         IMPEDANCE (OHMS)        ADMITTANCE (MHOS)     POWER
  No:   No:     REAL      IMAGINARY     REAL      IMAGINARY     REAL      IMAGINARY    REAL       IMAGINARY   (WATTS)
    1     2  1.0000E+00  0.0000E+00  3.0279E-02  6.2949E-03  3.1658E+01 -6.5814E+00  3.0279E-02  6.2949E-03  1.5140E-02


                           -------- CURRENTS AND LOCATION --------
                                  DISTANCES IN WAVELENGTHS

   SEG  TAG    COORDINATES OF SEGM CENTER     SEGM    ------------- CURRENT (AMPS) -------------
   No:  No:       X         Y         Z      LENGTH     REAL      IMAGINARY    MAGN        PHASE
     1    1    0.0000    0.0000    0.0004   0.00080  3.0280E-02  6.2893E-03  3.0926E-02   11.734
     2    1    0.0000    0.0000    0.0012   0.00080  3.0279E-02  6.2949E-03  3.0927E-02   11.744
     3    1    0.0000    0.0000    0.0020   0.00080  3.0278E-02  6.2660E-03  3.0919E-02   11.692
     4    2    0.0000    0.0000    0.0080   0.01126  3.0241E-02  6.0943E-03  3.0849E-02   11.394
     5    2    0.0000    0.0000    0.0193   0.01126  3.0056E-02  5.8234E-03  3.0615E-02   10.965
     6    2    0.0000    0.0000    0.0305   0.01126  2.9718E-02  5.5659E-03  3.0235E-02   10.608
     7    2    0.0000    0.0000    0.0418   0.01126  2.9229E-02  5.3062E-03  2.9707E-02   10.289
     8    2    0.0000    0.0000    0.0531   0.01126  2.8592E-02  5.0409E-03  2.9033E-02    9.999
     9    2    0.0000    0.0000    0.0643   0.01126  2.7809E-02  4.7685E-03  2.8215E-02    9.730
    10    2    0.0000    0.0000    0.0756   0.01126  2.6884E-02  4.4890E-03  2.7256E-02    9.480
    11    2    0.0000    0.0000    0.0868   0.01126  2.5820E-02  4.2027E-03  2.6159E-02    9.245
    12    2    0.0000    0.0000    0.0981   0.01126  2.4621E-02  3.9099E-03  2.4930E-02    9.023
    13    2    0.0000    0.0000    0.1093   0.01126  2.3294E-02  3.6117E-03  2.3573E-02    8.813
    14    2    0.0000    0.0000    0.1206   0.01126  2.1843E-02  3.3087E-03  2.2093E-02    8.613
    15    2    0.0000    0.0000    0.1319   0.01126  2.0275E-02  3.0019E-03  2.0496E-02    8.422
    16    2    0.0000    0.0000    0.1431   0.01126  1.8594E-02  2.6923E-03  1.8788E-02    8.239
    17    2    0.0000    0.0000    0.1544   0.01126  1.6807E-02  2.3809E-03  1.6975E-02    8.063
    18    2    0.0000    0.0000    0.1656   0.01126  1.4921E-02  2.0685E-03  1.5064E-02    7.893
    19    2    0.0000    0.0000    0.1769   0.01126  1.2940E-02  1.7560E-03  1.3059E-02    7.728
    20    2    0.0000    0.0000    0.1882   0.01126  1.0869E-02  1.4441E-03  1.0964E-02    7.568
    21    2    0.0000    0.0000    0.1994   0.01126  8.7091E-03  1.1331E-03  8.7825E-03    7.413
    22    2    0.0000    0.0000    0.2107   0.01126  6.4579E-03  8.2278E-04  6.5101E-03    7.261
    23    2    0.0000    0.0000    0.2219   0.01126  4.0978E-03  5.1128E-04  4.1296E-03    7.112
    24    2    0.0000    0.0000    0.2332   0.01126  1.5244E-03  1.8630E-04  1.5358E-03    6.968


                               ---------- POWER BUDGET ---------
                               INPUT POWER   =  1.5140E-02 Watts
                               RADIATED POWER=  1.5140E-02 Watts
                               STRUCTURE LOSS=  0.0000E+00 Watts
                               NETWORK LOSS  =  0.0000E+00 Watts
                               EFFICIENCY    =  100.00 Percent



  DATA CARD No:   5 RP   4   360     1  1000 -9.00000E+01  0.00000E+00  1.00000E+00  0.00000E+00  5.00000E+03  0.00000E+00


                               ------ FAR FIELD GROUND PARAMETERS ------


                               --- RADIAL WIRE GROUND SCREEN ---
                               NUM OF WIRES= 10
                               WIRE LENGTH=     5.00 METERS
                               WIRE RADIUS=  1.620E-03 METERS


                             ---------- RADIATION PATTERNS -----------

                             RANGE:  5.000000E+03 METERS
                             EXP(-JKR)/R:  2.00000E-04 AT PHASE: -297.32 DEGREES

 ---- ANGLES -----     ----- POWER GAINS -----       ---- POLARIZATION ----   ---- E(THETA) ----    ----- E(PHI) ------
  THETA      PHI       VERTC    HORIZ    TOTAL       AXIAL      TILT  SENSE   MAGNITUDE    PHASE    MAGNITUDE     PHASE
 DEGREES   DEGREES        DB       DB       DB       RATIO   DEGREES            VOLTS/M   DEGREES     VOLTS/M   DEGREES
  -90.00      0.00   -999.99  -999.99  -999.99      0.0000      0.00         8.0446E-15   -209.97  0.0000E+00   -297.32
  -89.00      0.00    -17.32  -999.99   -17.32      0.0000     -0.00 LINEAR  2.5957E-05   -390.03  0.0000E+00   -297.32
  -88.00      0.00    -11.66  -999.99   -11.66      0.0000     -0.00 LINEAR  4.9761E-05   -389.64  0.0000E+00   -297.32
  -87.00      0.00     -8.64  -999.99    -8.64      0.0000     -0.00 LINEAR  7.0470E-05   -388.53  0.0000E+00   -297.32
  -86.00      0.00     -6.64  -999.99    -6.64      0.0000     -0.00 LINEAR  8.8672E-05   -387.59  0.0000E+00   -297.32
  -85.00      0.00     -5.15  -999.99    -5.15      0.0000     -0.00 LINEAR  1.0537E-04   -387.50  0.0000E+00   -297.32
  -84.00      0.00     -4.02  -999.99    -4.02      0.0000      0.00 LINEAR  1.1999E-04   -386.85  0.0000E+00   -297.32
  -83.00      0.00     -3.11  -999.99    -3.11      0.0000      0.00 LINEAR  1.3315E-04   -386.20  0.0000E+00   -297.32
  -82.00      0.00     -2.33  -999.99    -2.33      0.0000      0.00 LINEAR  1.4577E-04   -386.15  0.0000E+00   -297.32
  -81.00      0.00     -1.71  -999.99    -1.71      0.0000      0.00 LINEAR  1.5655E-04   -385.52  0.0000E+00   -297.32
  -80.00      0.00     -1.15  -999.99    -1.15      0.0000      0.00 LINEAR  1.6688E-04   -385.37  0.0000E+00   -297.32
  -79.00      0.00     -0.71  -999.99    -0.71      0.0000      0.00 LINEAR  1.7551E-04   -384.78  0.0000E+00   -297.32
  -78.00      0.00     -0.34  -999.99    -0.34      0.0000      0.00 LINEAR  1.8315E-04   -384.21  0.0000E+00   -297.32
  -77.00      0.00      0.00  -999.99     0.00      0.0000      0.00 LINEAR  1.9061E-04   -384.09  0.0000E+00   -297.32
  -76.00      0.00      0.27  -999.99     0.27      0.0000      0.00 LINEAR  1.9660E-04   -383.60  0.0000E+00   -297.32
  -75.00      0.00      0.50  -999.99     0.50      0.0000      0.00 LINEAR  2.0184E-04   -383.13  0.0000E+00   -297.32
  -74.00      0.00      0.72  -999.99     0.72      0.0000      0.00 LINEAR  2.0712E-04   -383.07  0.0000E+00   -297.32
  -73.00      0.00      0.89  -999.99     0.89      0.0000      0.00 LINEAR  2.1113E-04   -382.68  0.0000E+00   -297.32
  -72.00      0.00      1.06  -999.99     1.06      0.0000      0.00 LINEAR  2.1519E-04   -382.63  0.0000E+00   -297.32
  -71.00      0.00      1.18  -999.99     1.18      0.0000      0.00 LINEAR  2.1816E-04   -382.29  0.0000E+00   -297.32
  -70.00      0.00      1.29  -999.99     1.29      0.0000      0.00 LINEAR  2.2116E-04   -382.26  0.0000E+00   -297.32
  -69.00      0.00      1.37  -999.99     1.37      0.0000      0.00 LINEAR  2.2323E-04   -381.96  0.0000E+00   -297.32
  -68.00      0.00      1.44  -999.99     1.44      0.0000      0.00 LINEAR  2.2489E-04   -381.68  0.0000E+00   -297.32
  -67.00      0.00      1.51  -999.99     1.51      0.0000      0.00 LINEAR  2.2661E-04   -381.69  0.0000E+00   -297.32
  -66.00      0.00      1.54  -999.99     1.54      0.0000      0.00 LINEAR  2.2754E-04   -381.44  0.0000E+00   -297.32
  -65.00      0.00      1.58  -999.99     1.58      0.0000      0.00 LINEAR  2.2848E-04   -381.45  0.0000E+00   -297.32
  -64.00      0.00      1.59  -999.99     1.59      0.0000      0.00 LINEAR  2.2878E-04   -381.23  0.0000E+00   -297.32
  -63.00      0.00      1.60  -999.99     1.60      0.0000      0.00 LINEAR  2.2904E-04   -381.24  0.0000E+00   -297.32
  -62.00      0.00      1.59  -999.99     1.59      0.0000      0.00 LINEAR  2.2876E-04   -381.05  0.0000E+00   -297.32
  -61.00      0.00      1.57  -999.99     1.57      0.0000      0.00 LINEAR  2.2842E-04   -381.06  0.0000E+00   -297.32
  -60.00      0.00      1.54  -999.99     1.54      0.0000      0.00 LINEAR  2.2763E-04   -380.89  0.0000E+00   -297.32
  -59.00      0.00      1.51  -999.99     1.51      0.0000      0.00 LINEAR  2.2675E-04   -380.90  0.0000E+00   -297.32
  -58.00      0.00      1.46  -999.99     1.46      0.0000      0.00 LINEAR  2.2551E-04   -380.75  0.0000E+00   -297.32
  -57.00      0.00      1.41  -999.99     1.41      0.0000      0.00 LINEAR  2.2414E-04   -380.77  0.0000E+00   -297.32
  -56.00      0.00      1.35  -999.99     1.35      0.0000      0.00 LINEAR  2.2250E-04   -380.63  0.0000E+00   -297.32
  -55.00      0.00      1.28  -999.99     1.28      0.0000      0.00 LINEAR  2.2071E-04   -380.64  0.0000E+00   -297.32
  -54.00      0.00      1.20  -999.99     1.20      0.0000      0.00 LINEAR  2.1870E-04   -380.52  0.0000E+00   -297.32
  -53.00      0.00      1.11  -999.99     1.11      0.0000      0.00 LINEAR  2.1654E-04   -380.52  0.0000E+00   -297.32
  -52.00      0.00      1.02  -999.99     1.02      0.0000      0.00 LINEAR  2.1421E-04   -380.42  0.0000E+00   -297.32
  -51.00      0.00      0.91  -999.99     0.91      0.0000      0.00 LINEAR  2.1172E-04   -380.42  0.0000E+00   -297.32
  -50.00      0.00      0.81  -999.99     0.81      0.0000      0.00 LINEAR  2.0907E-04   -380.40  0.0000E+00   -297.32
  -49.00      0.00      0.69  -999.99     0.69      0.0000      0.00 LINEAR  2.0633E-04   -380.31  0.0000E+00   -297.32
  -48.00      0.00      0.57  -999.99     0.57      0.0000      0.00 LINEAR  2.0343E-04   -380.28  0.0000E+00   -297.32
  -47.00      0.00      0.44  -999.99     0.44      0.0000      0.00 LINEAR  2.0041E-04   -380.24  0.0000E+00   -297.32
  -46.00      0.00      0.30  -999.99     0.30      0.0000      0.00 LINEAR  1.9732E-04   -380.16  0.0000E+00   -297.32
  -45.00      0.00      0.16  -999.99     0.16      0.0000      0.00 LINEAR  1.9411E-04   -380.11  0.0000E+00   -297.32
  -44.00      0.00      0.01  -999.99     0.01      0.0000      0.00 LINEAR  1.9082E-04   -380.04  0.0000E+00   -297.32
  -43.00      0.00     -0.14  -999.99    -0.14      0.0000      0.00 LINEAR  1.8745E-04   -379.98  0.0000E+00   -297.32
  -42.00      0.00     -0.30  -999.99    -0.30      0.0000      0.00 LINEAR  1.8398E-04   -379.92  0.0000E+00   -297.32
  -41.00      0.00     -0.47  -999.99    -0.47      0.0000      0.00 LINEAR  1.8044E-04   -379.87  0.0000E+00   -297.32
  -40.00      0.00     -0.65  -999.99    -0.65      0.0000      0.00 LINEAR  1.7683E-04   -379.82  0.0000E+00   -297.32
  -39.00      0.00     -0.83  -999.99    -0.83      0.0000      0.00 LINEAR  1.7314E-04   -379.77  0.0000E+00   -297.32
  -38.00      0.00     -1.02  -999.99    -1.02      0.0000      0.00 LINEAR  1.6939E-04   -379.72  0.0000E+00   -297.32
  -37.00      0.00     -1.22  -999.99    -1.22      0.0000      0.00 LINEAR  1.6558E-04   -379.68  0.0000E+00   -297.32
  -36.00      0.00     -1.43  -999.99    -1.43      0.0000      0.00 LINEAR  1.6171E-04   -379.64  0.0000E+00   -297.32
  -35.00      0.00     -1.64  -999.99    -1.64      0.0000      0.00 LINEAR  1.5779E-04   -379.60  0.0000E+00   -297.32
  -34.00      0.00     -1.86  -999.99    -1.86      0.0000      0.00 LINEAR  1.5382E-04   -379.56  0.0000E+00   -297.32
  -33.00      0.00     -2.09  -999.99    -2.09      0.0000      0.00 LINEAR  1.4981E-04   -379.52  0.0000E+00   -297.32
  -32.00      0.00     -2.33  -999.99    -2.33      0.0000      0.00 LINEAR  1.4575E-04   -379.49  0.0000E+00   -297.32
  -31.00      0.00     -2.58  -999.99    -2.58      0.0000      0.00 LINEAR  1.4165E-04   -379.46  0.0000E+00   -297.32
  -30.00      0.00     -2.83  -999.99    -2.83      0.0000      0.00 LINEAR  1.3751E-04   -379.43  0.0000E+00   -297.32
  -29.00      0.00     -3.10  -999.99    -3.10      0.0000      0.00 LINEAR  1.3333E-04   -379.39  0.0000E+00   -297.32
  -28.00      0.00     -3.38  -999.99    -3.38      0.0000      0.00 LINEAR  1.2913E-04   -379.37  0.0000E+00   -297.32
  -27.00      0.00     -3.67  -999.99    -3.67      0.0000      0.00 LINEAR  1.2489E-04   -379.34  0.0000E+00   -297.32
  -26.00      0.00     -3.97  -999.99    -3.97      0.0000      0.00 LINEAR  1.2061E-04   -379.31  0.0000E+00   -297.32
  -25.00      0.00     -4.29  -999.99    -4.29      0.0000      0.00 LINEAR  1.1632E-04   -379.28  0.0000E+00   -297.32
  -24.00      0.00     -4.62  -999.99    -4.62      0.0000      0.00 LINEAR  1.1199E-04   -379.25  0.0000E+00   -297.32
  -23.00      0.00     -4.96  -999.99    -4.96      0.0000      0.00 LINEAR  1.0763E-04   -379.22  0.0000E+00   -297.32
  -22.00      0.00     -5.32  -999.99    -5.32      0.0000      0.00 LINEAR  1.0325E-04   -379.19  0.0000E+00   -297.32
  -21.00      0.00     -5.70  -999.99    -5.70      0.0000      0.00 LINEAR  9.8850E-05   -379.16  0.0000E+00   -297.32
  -20.00      0.00     -6.10  -999.99    -6.10      0.0000      0.00 LINEAR  9.4420E-05   -379.13  0.0000E+00   -297.32
  -19.00      0.00     -6.52  -999.99    -6.52      0.0000      0.00 LINEAR  8.9966E-05   -379.10  0.0000E+00   -297.32
  -18.00      0.00     -6.96  -999.99    -6.96      0.0000      0.00 LINEAR  8.5488E-05   -379.06  0.0000E+00   -297.32
  -17.00      0.00     -7.43  -999.99    -7.43      0.0000      0.00 LINEAR  8.0984E-05   -379.02  0.0000E+00   -297.32
  -16.00      0.00     -7.93  -999.99    -7.93      0.0000      0.00 LINEAR  7.6456E-05   -378.98  0.0000E+00   -297.32
  -15.00      0.00     -8.47  -999.99    -8.47      0.0000      0.00 LINEAR  7.1902E-05   -378.93  0.0000E+00   -297.32
  -14.00      0.00     -9.04  -999.99    -9.04      0.0000      0.00 LINEAR  6.7322E-05   -378.88  0.0000E+00   -297.32
  -13.00      0.00     -9.65  -999.99    -9.65      0.0000      0.00 LINEAR  6.2714E-05   -378.82  0.0000E+00   -297.32
  -12.00      0.00    -10.32  -999.99   -10.32      0.0000      0.00 LINEAR  5.8079E-05   -378.76  0.0000E+00   -297.32
